"Freq [GHz]","im(S(1,1)) []","re(S(1,1)) []","im(S(1,2)) []","re(S(1,2)) []","im(S(2,1)) []","re(S(2,1)) []","im(S(2,2)) []","re(S(2,2)) []"
0.1,-0.125551387951023,0.89515579490025,0.000447466981612526,0.000431158720640007,0.000447466981601598,0.000431158720638886,-0.119587020275761,0.833922309284493
0.11,-0.123033409346129,0.931190531073568,0.00071379222891492,0.000263584025073494,0.000713792228923151,0.000263584025072466,-0.108663548554033,0.906770556617357
0.12,-0.137598202229292,0.950400626856631,0.000977019377077276,0.000194106853342643,0.000977019377089454,0.000194106853346887,-0.125712422234999,0.93738985309505
0.13,-0.155018085683491,0.959961045566569,0.00121364736575236,0.000186918194719234,0.00121364736576232,0.000186918194726277,-0.144595688868314,0.951767369147828
0.14,-0.172436955372326,0.964507387944904,0.00142094536624894,0.000215384662705568,0.00142094536625555,0.000215384662712886,-0.162701108806074,0.959046826963067
0.15,-0.189331526780848,0.966231949270386,0.00160334491700651,0.000263569504207688,0.00160334491701035,0.000263569504213995,-0.17992406526746,0.962642469927214
0.16,-0.20566996073168,0.966218699329881,0.00176636674066098,0.000322751294512355,0.00176636674066293,0.000322751294517249,-0.196438404848403,0.964055707710958
0.17,-0.221518619740625,0.96504698133093,0.00191471278082481,0.000388343395953283,0.00191471278082558,0.000388343395956807,-0.212403843238105,0.964037524776513
0.18,-0.236952088946351,0.963049515187767,0.00205195118830205,0.000457989456984305,0.00205195118830214,0.000457989456986657,-0.227935960976866,0.963002387453348
0.19,-0.252033886316567,0.960429358555234,0.00218067288539832,0.000530510029798384,0.00218067288539806,0.000530510029799809,-0.243114398952984,0.961197651364422
0.2,-0.266814502753004,0.957316854642845,0.00230272855754871,0.000605341634255617,0.0023027285575483,0.000605341634256343,-0.257993682796443,0.958780924654981
0.21,-0.281333361511865,0.95379925448907,0.00241943427067469,0.000682240854288984,0.00241943427067425,0.000682240854289192,-0.272611493624724,0.955858529592069
0.22,-0.295621226685736,0.949937043969952,0.0025317263803889,0.000761127999021287,0.00253172638038849,0.000761127999021134,-0.286994392798064,0.952505917113496
0.23,-0.309702242206629,0.945773405789381,0.00264027230033243,0.000842004165535182,0.00264027230033209,0.000842004165534782,-0.301161682724217,0.948779057230695
0.24,-0.323595498985058,0.941339947088257,0.00274554819540182,0.000924907177587892,0.00274554819540155,0.000924907177587331,-0.315127981753039,0.944721041794496
0.25,-0.337316202652185,0.936660300934615,0.00284789323841184,0.00100988830740954,0.00284789323841166,0.00100988830740889,-0.32890491715484,0.94036603174446
0.26,-0.350876537885573,0.931752467888898,0.00294754761454347,0.00109700020054787,0.00294754761454335,0.00109700020054718,-0.34250221078938,0.935741685913317
0.27,-0.364286310762554,0.92663038402107,0.00304467932364158,0.00118629086888303,0.00304467932364153,0.00118629086888232,-0.355928347607769,0.93087070587952
0.28,-0.377553430593353,0.92130499875691,0.00313940324779333,0.00127780096716391,0.00313940324779333,0.00127780096716322,-0.369190962239692,0.925771861873181
0.29,-0.390684275646632,0.915785033186396,0.00323179484713325,0.00137156282835306,0.0032317948471333,0.00137156282835241,-0.382297041454355,0.920460712712817
0.3,-0.403683974371201,0.91007752466714,0.0033219000950886,0.00146760041769663,0.00332190009508867,0.00146760041769604,-0.395253013023763,0.914950143779215
0.31,-0.416556624535709,0.904188225148854,0.00340974275711394,0.00156592974197805,0.00340974275711405,0.00156592974197751,-0.40806477072731,0.909250794004743
0.32,-0.429305466248008,0.898121897239412,0.0034953297749598,0.00166655945956006,0.00349532977495991,0.00166655945955958,-0.420737669135984,0.903371411323092
0.33,-0.441933020295637,0.891882537404272,0.0035786552869519,0.00176949155378632,0.00357865528695202,0.0017694915537859,-0.433276509519993,0.897319157704442
0.34,-0.454441200082431,0.885473546333138,0.00365970365692984,0.0018747219979187,0.00365970365692996,0.00187472199791834,-0.445685529165183,0.891099874730698
0.35,-0.466831403207231,0.878897860392213,0.00373845177606401,0.00198224137649657,0.00373845177606412,0.00198224137649627,-0.457968400046718,0.884718315417629
0.36,-0.47910458715061,0.872158054003545,0.00381487082662858,0.00209203544834384,0.00381487082662868,0.0020920354483436,-0.470128238667044,0.878178345584969
0.37,-0.491261332406057,0.86525642002451,0.00388892764426664,0.00220408564747834,0.00388892764426673,0.00220408564747814,-0.482167626399053,0.871483117193092
0.38,-0.503301895577329,0.858195033287595,0.00396058577821114,0.00231836952391435,0.00396058577821121,0.00231836952391421,-0.49408863840965,0.86463521590311
0.39,-0.515226254370189,0.850975801117446,0.00402980632253441,0.00243486112909428,0.00402980632253445,0.00243486112909418,-0.505892878774013,0.857636785218731
0.4,-0.527034145969989,0.843600503684512,0.004096548572547,0.00255353135176418,0.00409654857254702,0.00255353135176413,-0.517581519415335,0.850489629697509
0.41,-0.538725099971852,0.836070826362082,0.00416077054674219,0.00267434821028413,0.00416077054674219,0.0026743482102841,-0.52915534079319,0.843195299774956
0.42,-0.550298466786151,0.828388385746133,0.00422242940466208,0.00279727710707491,0.00422242940466205,0.00279727710707492,-0.540614772663698,0.835755160701494
0.43,-0.561753442256628,0.82055475062094,0.00428148178368788,0.00292228105039837,0.00428148178368783,0.00292228105039841,-0.55195993365209,0.828170447960059
0.44,-0.573089089086196,0.812571458870975,0.00433788407229089,0.00304932084808668,0.00433788407229081,0.00304932084808675,-0.563190668760501,0.820442311336574
0.45,-0.584304355555075,0.804440031125432,0.00439159263319871,0.00317835527725312,0.00439159263319861,0.00317835527725322,-0.574306584256501,0.812571849583246
0.46,-0.595398091929379,0.796161981757726,0.00444256398686268,0.00330934123346997,0.00444256398686255,0.00330934123347007,-0.585307079644263,0.804560137368957
0.47,-0.606369064889757,0.787738827735628,0.00449075496328979,0.00344223386240565,0.00449075496328963,0.00344223386240577,-0.596191376613707,0.796408245968951
0.48,-0.617215970254931,0.779172095719042,0.00453612282853384,0.00357698667647849,0.00453612282853367,0.00357698667647863,-0.606958545001555,0.788117258919204
0.49,-0.627937444230838,0.770463327724999,0.00457862539078556,0.00371355165870627,0.00457862539078536,0.00371355165870642,-0.617607525891982,0.779688283655761
0.5,-0.638532073380081,0.761614085618322,0.00461822108995706,0.00385187935560629,0.00461822108995684,0.00385187935560646,-0.628137152043162,0.771122459978952
0.51,-0.648998403477037,0.752625954637794,0.00465486907384752,0.0039919189607231,0.00465486907384728,0.00399191896072327,-0.638546165858281,0.762420966027148
0.52,-0.659334947389531,0.743500546128841,0.0046885292633466,0.00413361839012517,0.00468852926334633,0.00413361839012534,-0.648833235132743,0.753585022313373
0.53,-0.669540192107832,0.734239499622562,0.00471916240863926,0.00427692435101164,0.00471916240863897,0.00427692435101181,-0.658996966809289,0.744615894268448
0.54,-0.679612605024741,0.724844484375724,0.00474673013798785,0.00442178240440083,0.00474673013798755,0.00442178240440101,-0.669035918963956,0.735514893644017
0.55,-0.689550639556339,0.715317200466021,0.00477119500036081,0.00456813702272873,0.0047711950003605,0.0045681370227289,-0.678948611231695,0.726283379054931
0.56,-0.699352740180882,0.705659379520252,0.00479252050293451,0.00471593164306417,0.00479252050293417,0.00471593164306433,-0.688733533863409,0.716922755880703
0.57,-0.709017346963116,0.695872785139576,0.00481067114430076,0.00486510871654484,0.00481067114430041,0.004865108716545,-0.698389155587924,0.707434475697613
0.58,-0.718542899622564,0.68595921307494,0.0048256124440579,0.00501560975455095,0.00482561244405754,0.0050156097545511,-0.707913930434035,0.697820035374638
0.59,-0.727927841196845,0.675920491196642,0.00483731096933855,0.00516737537205931,0.00483731096933818,0.00516737537205945,-0.717306303650188,0.688080975935792
0.6,-0.737170621344683,0.665758479294565,0.00484573435872729,0.00532034532855822,0.0048457343587269,0.00532034532855835,-0.726564716842791,0.678218881267333
0.61,-0.746269699327724,0.655475068739413,0.00485085134393994,0.00547445856684965,0.00485085134393955,0.00547445856684978,-0.735687612439053,0.66823537672926
0.62,-0.755223546705505,0.645072182030195,0.00485263176957083,0.00562965325001993,0.00485263176957043,0.00562965325002004,-0.744673437566576,0.658132127715677
0.63,-0.764030649773782,0.634551772248978,0.00485104661116024,0.00578586679682122,0.00485104661115984,0.00578586679682133,-0.753520647429705,0.647910838196969
0.64,-0.772689511772823,0.623915822440436,0.00484606799179115,0.00594303591567281,0.00484606799179074,0.0059430359156729,-0.762227708251905,0.637573249267783
0.65,-0.781198654889142,0.613166344930782,0.0048376691973881,0.00610109663746263,0.00483766919738768,0.00610109663746272,-0.770793099843918,0.627121137717868
0.66,-0.789556622071451,0.602305380598288,0.00482582469086172,0.00625998434730541,0.00482582469086131,0.00625998434730548,-0.779215317849213,0.616556314637503
0.67,-0.797761978679185,0.591334998105553,0.00481051012521849,0.00641963381539212,0.00481051012521808,0.00641963381539218,-0.787492875711055,0.605880624065255
0.68,-0.80581331397991,0.580257293101987,0.00479170235573494,0.00657997922704805,0.00479170235573453,0.00657997922704809,-0.795624306399283,0.595095941682727
0.69,-0.813709242510068,0.569074387403612,0.00476937945127936,0.00674095421210067,0.00476937945127894,0.00674095421210071,-0.803608163929537,0.584204173558692
0.7,-0.821448405311935,0.557788428156047,0.00474352070485011,0.0069024918736452,0.0047435207048497,0.00690249187364522,-0.811443024703019,0.573207254943388
0.71,-0.829029471058249,0.546401586985619,0.00471410664338863,0.00706452481628389,0.00471410664338822,0.0070645248162839,-0.81912748869092,0.56210714911246
0.72,-0.836451137074713,0.534916059142678,0.00468111903691521,0.00722698517390519,0.0046811190369148,0.00722698517390519,-0.826660180484201,0.550905846259268
0.73,-0.843712130269517,0.523334062640509,0.00464454090702847,0.00738980463705975,0.00464454090702807,0.00738980463705974,-0.834039750226501,0.539605362433645
0.74,-0.850811207978018,0.511657837392683,0.00460435653480225,0.00755291447998283,0.00460435653480187,0.0075529144799828,-0.841264874445418,0.528207738524826
0.75,-0.857747158729908,0.499889644351165,0.00456055146810863,0.00771624558730583,0.00456055146810825,0.0077162455873058,-0.848334256795263,0.516715039286063
0.76,-0.8645188029454,0.488031764647112,0.0045131125283908,0.00787972848049382,0.00451311252839044,0.00787972848049378,-0.855246628722527,0.505129352398315
0.77,-0.871124993566329,0.476086498735962,0.00446202781690615,0.00804329334404082,0.0044620278169058,0.00804329334404077,-0.862000750063742,0.493452787570385
0.78,-0.87756461662746,0.4640561655481,0.00440728672045627,0.00820687005145007,0.00440728672045592,0.00820687005145001,-0.86859540958403,0.481687475672915
0.79,-0.883836591772766,0.451943101646172,0.00434887991661816,0.00837038819102268,0.00434887991661782,0.00837038819102261,-0.875029425463507,0.469835567903733
0.8,-0.889939872720962,0.439749660389905,0.00428679937848873,0.00853377709147435,0.0042867993784884,0.00853377709147428,-0.881301645737681,0.457899234982136
0.81,-0.895873447684195,0.427478211109128,0.00422103837895254,0.00869696584739708,0.00422103837895222,0.008696965847397,-0.887410948697169,0.445880666369854
0.82,-0.901636339743373,0.415131138285549,0.00415159149448148,0.00885988334457983,0.00415159149448118,0.00885988334457974,-0.89335624325127,0.43378206951653
0.83,-0.907227607183335,0.402710840743712,0.0040784546084736,0.00902245828519988,0.00407845460847331,0.00902245828519979,-0.899136469259377,0.421605669127733
0.84,-0.912646343790718,0.390219730851481,0.00400162491413727,0.00918461921289455,0.00400162491413699,0.00918461921289444,-0.904750597833588,0.409353706453648
0.85,-0.917891679117152,0.3776602337303,0.00392110091692598,0.00934629453772082,0.00392110091692571,0.00934629453772072,-0.910197631615498,0.39702843859671
0.86,-0.922962778710157,0.365034786475417,0.00383688243652839,0.0095074125610092,0.00383688243652814,0.00950741256100909,-0.915476605029677,0.384632137836624
0.87,-0.927858844313908,0.352345837386203,0.00374897060841753,0.00966790150011615,0.0037489706084173,0.00966790150011604,-0.920586584516064,0.372167090971291
0.88,-0.932579114041838,0.339595845206649,0.00365736788496271,0.00982768951307878,0.00365736788496249,0.00982768951307866,-0.925526668743157,0.359635598672328
0.89,-0.937122862522892,0.326787278376078,0.00356207803610717,0.00998670472317352,0.00356207803610697,0.00998670472317341,-0.930295988803674,0.347039974853956
0.9,-0.941489401023078,0.31392261429011,0.0034631061496144,0.0101448752433804,0.00346310614961421,0.0101448752433803,-0.934893708394093,0.334382546054145
0.91,-0.945678077543825,0.301004338571834,0.00336045863088553,0.0103021292007528,0.00336045863088535,0.0103021292007527,-0.939319023979335,0.321665650827013
0.92,-0.94968827689854,0.28803494435319,0.00325414320235038,0.0104583947606922,0.00325414320235022,0.0104583947606921,-0.943571164943665,0.308891639145555
0.93,-0.953519420768637,0.275016931566486,0.00314416890243431,0.0106136001511272,0.00314416890243416,0.0106136001511271,-0.947649393728744,0.296062871813868
0.94,-0.957170967740207,0.261952806246002,0.00303054608410312,0.0107676736865937,0.003030546084103,0.0107676736865936,-0.951553005959668,0.283181719888126
0.95,-0.960642413322422,0.248845079839605,0.00291328641298822,0.010920543792215,0.0029132864129881,0.0109205437922149,-0.955281330559693,0.270250564105613
0.96,-0.963933289948662,0.235696268530299,0.00279240286509406,0.0110721390275784,0.00279240286509396,0.0110721390275783,-0.958833729854279,0.257271794321204
0.97,-0.967043166961292,0.222508892567617,0.00266790972409026,0.0112223881105042,0.00266790972409018,0.0112223881105041,-0.962209599665003,0.244247808950737
0.98,-0.969971650580947,0.209285475608773,0.0025398225781904,0.0113712199407053,0.00253982257819033,0.0113712199407052,-0.965408369393808,0.231181014420774
0.99,-0.97271838386112,0.196028544069477,0.00240815831661982,0.01151856362333,0.00240815831661976,0.01151856362333,-0.968429502098012,0.218073824624299
1,-0.97528304662879,0.182740626484323,0.00227293512567493,0.0116643484923878,0.00227293512567488,0.0116643484923877,-0.971272494556457,0.20492866038196
1.01,-0.977665355411776,0.169424252876646,0.00213417248437624,0.0118085041340489,0.0021341724843762,0.0118085041340488,-0.973936877327104,0.191747948908474
1.02,-0.979865063353465,0.156081954137762,0.00199189115971782,0.0119509604098167,0.0019918911597178,0.0119509604098166,-0.976422214796371,0.178534123283889
1.03,-0.981881960115509,0.142716261415491,0.00184611320151579,0.0120916474795655,0.00184611320151578,0.0120916474795654,-0.97872810522047,0.165289621929404
1.04,-0.983715871769049,0.129329705511873,0.0016968619368586,0.0122304958244387,0.0016968619368586,0.0122304958244387,-0.980854180758963,0.152016888087488
1.05,-0.985366660675006,0.115924816289969,0.00154416196416203,0.0123674362696032,0.00154416196416204,0.0123674362696031,-0.982800107500729,0.13871836930608
1.06,-0.986834225353913,0.102504122089684,0.00138803914683197,0.0125024000068528,0.00138803914683199,0.0125024000068528,-0.984565585482545,0.125396516926653
1.07,-0.988118500345774,0.0890701491524895,0.00122852060653801,0.0126353186170567,0.00122852060653805,0.0126353186170566,-0.98615034870041,0.112053785575971
1.08,-0.989219456060376,0.0756254210549794,0.00106563471610138,0.0127661240924456,0.00106563471610142,0.0127661240924456,-0.987554165113778,0.0986926326613846
1.09,-0.990137098618467,0.062172458151165,0.000899411092000395,0.0128947488587321,0.000899411092000445,0.0128947488587321,-0.988776836642825,0.0853155178695166
1.1,-0.990871469684207,0.0487137770234229,0.000729880586497245,0.0130211257970567,0.000729880586497305,0.0130211257970567,-0.989818199158851,0.0719249026682273
1.11,-0.991422646289241,0.0352518899420161,0.000557075279389709,0.0131451882657559,0.000557075279389773,0.0131451882657559,-0.990678122467959,0.0585232498117502
1.12,-0.991790740648761,0.0217893043331029,0.000381028469391647,0.0132668701219467,0.000381028469391718,0.0132668701219467,-0.991356510288062,0.0451130228489101
1.13,-0.991975899969898,0.00832852225516198,0.000201774665146382,0.013386105742919,0.00020177466514646,0.0133861057429191,-0.991853300219359,0.031696685634349
1.14,-0.991978306252736,-0.00512796011625525,1.93495758769989E-005,0.0135028300473343,1.93495758770815E-005,0.0135028300473344,-0.992168463708322,0.0182767018426897
1.15,-0.991798176084281,-0.0185776529955115,-0.000166209898322108,0.0136169785162211,-0.00016620989832202,0.0136169785162211,-0.992302006005288,0.00485553448559525
1.16,-0.991435760425663,-0.0320180734856903,-0.000354865676548027,0.0137284872137636,-0.000354865676547932,0.0137284872137637,-0.992253966115741,-0.00856435456833488
1.17,-0.990891344392844,-0.0454467460692912,-0.00054657850750193,0.0138372928078785,-0.000546578507501833,0.0138372928078786,-0.992024416745324,-0.0219805050708508
1.18,-0.990165247031102,-0.0588612030908934,-0.000741307980246845,0.0139433325905715,-0.000741307980246745,0.0139433325905716,-0.991613464238676,-0.0353904588685577
1.19,-0.989257821083551,-0.0722589852318449,-0.000939012535305662,0.0140465444980719,-0.000939012535305558,0.014046544498072,-0.991021248512129,-0.0487917603746539
1.2,-0.988169452753938,-0.085637641977066,-0.00113964947609469,0.0141468671307366,-0.00113964947609458,0.0141468671307367,-0.990247942980349,-0.0621819570379162
1.21,-0.986900561463941,-0.0989947320740142,-0.00134317498068746,0.0142442397727203,-0.00134317498068736,0.0142442397727205,-0.98929375447695,-0.0755585998089396
1.22,-0.985451599605211,-0.112327823983898,-0.00154954411390386,0.0143386024114059,-0.00154954411390375,0.0143386024114061,-0.988158923169167,-0.0889192436036292
1.23,-0.983823052286375,-0.125634496325195,-0.0017587108397191,0.0144298957565898,-0.001758710839719,0.01442989575659,-0.986843722466616,-0.102261447763945
1.24,-0.982015437075193,-0.138912338309542,-0.0019706280339874,0.0145180612594178,-0.00197062803398729,0.0145180612594179,-0.985348458924199,-0.115582776515887
1.25,-0.980029303736088,-0.152158950170065,-0.00218524749747459,0.0146030411310661,-0.00218524749747449,0.0146030411310663,-0.983673472139221,-0.128880799424709
1.26,-0.977865233963247,-0.165371943582218,-0.00240251996919448,0.0146847783611634,-0.00240251996919437,0.0146847783611636,-0.981819134642743,-0.142153091847351
1.27,-0.975523841109463,-0.178548942077187,-0.00262239514004284,0.014763216735948,-0.00262239514004274,0.0147632167359482,-0.979785851785245,-0.155397235382061
1.28,-0.973005769910922,-0.191687581447928,-0.00284482166672366,0.0148383008561575,-0.00284482166672357,0.0148383008561577,-0.977574061616626,-0.168610818315194
1.29,-0.970311696208111,-0.204785510147904,-0.0030697471859616,0.0149099761546452,-0.0030697471859615,0.0149099761546454,-0.975184234760609,-0.181791436065154
1.3,-0.967442326662999,-0.217840389682584,-0.00329711832899475,0.014978188913719,-0.00329711832899466,0.0149781889137192,-0.972616874283585,-0.194936691623468
1.31,-0.964398398472683,-0.230849894993771,-0.00352688073634185,0.0150428862821999,-0.00352688073634177,0.0150428862822001,-0.969872515557949,-0.208044195992943
1.32,-0.961180679079642,-0.24381171483681,-0.00375897907283766,0.0151040162921947,-0.00375897907283758,0.015104016292195,-0.966951726119981,-0.221111568622889
1.33,-0.957789965878777,-0.25672355215076,-0.00399335704293058,0.0151615278755804,-0.0039933570429305,0.0151615278755806,-0.963855105522304,-0.234136437841372
