"Freq [GHz]","im(S(1,1)) []","re(S(1,1)) []","im(S(1,2)) []","re(S(1,2)) []","im(S(2,1)) []","re(S(2,1)) []","im(S(2,2)) []","re(S(2,2)) []"
0.1,-0.17037692969805,0.850518344444888,0.00672281467001087,0.0014549344627108,0.0067228146700123,0.00145493446271022,-0.146689254220895,0.908120228252912
0.11,-0.12864756569895,0.836825014032544,0.00775311320481217,0.00128983007895889,0.00775311320480909,0.00128983007896656,-0.134288907506459,0.891724375958289
0.12,-0.0931266353626481,0.883168446800261,0.00890145684951145,0.00136589076221545,0.00890145684950067,0.00136589076222218,-0.101539618856848,0.910540487168906
0.13,-0.113403230302804,0.932804894876062,0.0100017278141101,0.00164869976451927,0.0100017278140966,0.00164869976452057,-0.116069632109928,0.961436975976738
0.14,-0.147861921109576,0.953545017074792,0.011003352943869,0.0020410887222829,0.0110033529438569,0.00204108872227972,-0.156733396807149,0.978686161589873
0.15,-0.17786610571867,0.959693139140926,0.0119201231727312,0.00248126648950484,0.0119201231727217,0.00248126648949936,-0.188854003830289,0.978154864330743
0.16,-0.202859978422005,0.960193539118148,0.0127761349182029,0.00294321984484529,0.0127761349181959,0.00294321984483895,-0.213555602055446,0.973515409726812
0.17,-0.224452360718579,0.958362175723501,0.0135896865397368,0.00341859394379588,0.0135896865397319,0.00341859394378951,-0.234231653682185,0.968134506787134
0.18,-0.243841725594387,0.955425672694305,0.0143724299937246,0.00390590451183319,0.0143724299937213,0.00390590451182722,-0.252684534267145,0.96271764417256
0.19,-0.261769248708434,0.951873077122187,0.0151313897981027,0.00440593513419905,0.0151313897981005,0.00440593513419363,-0.269814321312541,0.957369784734953
0.2,-0.278688230793745,0.947915119550624,0.0158707198357734,0.00492000384390714,0.0158707198357721,0.00492000384390234,-0.286094658363148,0.952063505048738
0.21,-0.294882682751924,0.943648981857771,0.0165928410683007,0.00544936927778105,0.0165928410683,0.00544936927777683,-0.301791231320846,0.946750013558577
0.22,-0.310536079223895,0.93912220183439,0.0172991248920924,0.0059950618156275,0.0172991248920921,0.00599506181562386,-0.317061846913142,0.941385159554901
0.23,-0.32577045958443,0.934359333918722,0.0179902976489778,0.00655786457426072,0.0179902976489779,0.00655786457425756,-0.33200480414717,0.935933994616442
0.24,-0.340669102003005,0.929373790621441,0.0186666819962092,0.00713834140622079,0.0186666819962094,0.00713834140621809,-0.346683729750881,0.930370037354847
0.25,-0.355290067409102,0.924173384547972,0.0193283434075795,0.00773687471019482,0.0193283434075799,0.00773687471019255,-0.361141068331001,0.924673542388429
0.26,-0.369674545641392,0.918763037041492,0.0199751809313072,0.00835370060837733,0.0199751809313078,0.00835370060837542,-0.375405786165616,0.918829883562168
0.27,-0.383852153574026,0.913146150063371,0.0206069846269869,0.0089889381982341,0.0206069846269875,0.00898893819823255,-0.38949796804118,0.91282827291131
0.28,-0.397844391483743,0.907325321514693,0.0212234726879967,0.00964261279576155,0.0212234726879973,0.0096426127957602,-0.403431667629279,0.906660798913202
0.29,-0.411666954412943,0.901302727005489,0.0218243159251931,0.0103146740551487,0.0218243159251937,0.0103146740551476,-0.417216735529121,0.900321717571973
0.3,-0.425331312718133,0.895080327316552,0.0224091542296117,0.0110050100024484,0.0224091542296124,0.0110050100024476,-0.430860026981728,0.893806931822628
0.31,-0.438845814816748,0.888659982617039,0.0229776078470258,0.0117134579062664,0.0229776078470264,0.0117134579062658,-0.444366220987754,0.887113608102345
0.32,-0.452216470646223,0.882043515843535,0.0235292852358256,0.0124398127316182,0.0235292852358261,0.0124398127316177,-0.45773838897625,0.880239892211015
0.33,-0.465447517482102,0.87523274794161,0.0240637886364706,0.0131838337552716,0.0240637886364712,0.0131838337552713,-0.470978397902423,0.873184697137461
0.34,-0.478541834700244,0.868229517359444,0.0245807180836838,0.0139452497821529,0.0245807180836844,0.0139452497821527,-0.484087201358347,0.865947543309673
0.35,-0.491501251959691,0.861035690663093,0.0250796743430222,0.0147237632941726,0.0250796743430227,0.0147237632941725,-0.497065053364044,0.858528437295871
0.36,-0.504326781050445,0.853653168130228,0.0255602610939767,0.0155190537807023,0.0255602610939771,0.0155190537807023,-0.509911667771818,0.850927778924433
0.37,-0.517018792311829,0.84608388650755,0.0260220865781739,0.0163307804384042,0.0260220865781742,0.0163307804384043,-0.522626338763744,0.843146289575483
0.38,-0.529577150291018,0.838329820176951,0.026464764862973,0.0171585843822578,0.0264647648629734,0.017158584382258,-0.53520803308571,0.835184956370322
0.39,-0.542001319078889,0.830392981441112,0.0268879168250909,0.0180020904754605,0.0268879168250912,0.0180020904754608,-0.547655461460228,0.8270449883911
0.4,-0.554290444844459,0.822275420332968,0.0272911709279516,0.0188609088603786,0.0272911709279518,0.0188609088603789,-0.559967134462799,0.81872778207202
0.41,-0.566443421052329,0.813979224177208,0.0276741638452346,0.0197346362536158,0.0276741638452348,0.0197346362536161,-0.572141406668138,0.810234893632609
0.42,-0.578458940406301,0.805506517030355,0.0280365409683645,0.0206228570538816,0.0280365409683646,0.0206228570538821,-0.584176511843696,0.801568016954791
0.43,-0.590335536530287,0.796859459067527,0.0283779568253468,0.0215251443004556,0.0283779568253469,0.021525144300456,-0.596070591241637,0.792728965695409
0.44,-0.602071617650397,0.788040245950727,0.0286980754310279,0.0224410605117592,0.028698075431028,0.0224410605117597,-0.607821716521018,0.783719658714277
0.45,-0.613665493995375,0.77905110819482,0.0289965705836111,0.0233701584272057,0.0289965705836111,0.0233701584272062,-0.619427908455824,0.774542108112696
0.46,-0.625115400228669,0.769894310537166,0.0292731261184726,0.0243119816706159,0.0292731261184725,0.0243119816706163,-0.630887152309111,0.765198409338646
0.47,-0.636419513924411,0.760572151311627,0.0295274361275623,0.0252660653497071,0.0295274361275622,0.0252660653497077,-0.64219741054972,0.755690732936694
0.48,-0.647575970873183,0.751086961825139,0.0297592051506479,0.0262319366032209,0.0297592051506478,0.0262319366032214,-0.653356633435702,0.746021317613309
0.49,-0.658582877831948,0.741441105734107,0.0299681483431633,0.0272091151049455,0.0299681483431631,0.027209115104946,-0.664362767873694,0.736192464359197
0.5,-0.669438323201526,0.731636978417745,0.0301539916243059,0.0281971135320814,0.0301539916243057,0.0281971135320819,-0.675213764876124,0.72620653142485
0.51,-0.68014038601428,0.721677006345776,0.0303164718081926,0.0291954380039549,0.0303164718081924,0.0291954380039555,-0.685907585871043,0.71606592998776
0.52,-0.690687143536676,0.711563646438341,0.0304553367202535,0.0302035884959489,0.0304553367202532,0.0302035884959495,-0.696442208067635,0.705773120382684
0.53,-0.701076677730651,0.701299385416498,0.0305703453005622,0.0312210592326029,0.0305703453005619,0.0312210592326034,-0.706815629040139,0.69533060879206
0.54,-0.711307080770075,0.690886739142129,0.0306612676954426,0.0322473390631058,0.0306612676954423,0.0322473390631063,-0.717025870661339,0.684740944313956
0.55,-0.721376459771064,0.680328251946541,0.0307278853384084,0.0332819118218108,0.0307278853384081,0.0332819118218113,-0.727070982491905,0.674006716340917
0.56,-0.731282940865148,0.669626495947359,0.0307699910212803,0.034324256675926,0.0307699910212799,0.0343242566759265,-0.736949044712137,0.663130552195803
0.57,-0.741024672720594,0.658784070353641,0.0307873889561604,0.0353738484621441,0.03078738895616,0.0353738484621445,-0.746658170666915,0.652115114980811
0.58,-0.750599829598192,0.647803600759365,0.0307798948288164,0.0364301580136578,0.0307798948288159,0.0364301580136583,-0.756196509082082,0.640963101604014
0.59,-0.760006614012575,0.636687738425619,0.030747335843926,0.0374926524787494,0.0307473358439256,0.0374926524787499,-0.765562246000277,0.629677240954237
0.6,-0.769243259057778,0.625439159551965,0.0306895507625614,0.0385607956319254,0.030689550762561,0.0385607956319259,-0.774753606476089,0.618260292200398
0.61,-0.778308030445769,0.614060564537558,0.0306063899322261,0.0396340481783972,0.0306063899322256,0.0396340481783976,-0.783768856063647,0.60671504319564
0.62,-0.787199228298495,0.602554677232672,0.0304977153097178,0.0407118680525586,0.0304977153097173,0.040711868052559,-0.792606302124351,0.595044308970099
0.63,-0.795915188727358,0.590924244181315,0.0303634004770488,0.0417937107109934,0.0303634004770483,0.0417937107109938,-0.801264294977978,0.583250930298944
0.64,-0.804454285228522,0.579172033855684,0.0302033306506317,0.0428790294204459,0.0302033306506312,0.0428790294204463,-0.809741228916698,0.571337772334641
0.65,-0.812814929917978,0.567300835883191,0.030017402683913,0.0439672755411031,0.0300174026839125,0.0439672755411035,-0.818035543098509,0.559307723294302
0.66,-0.820995574626533,0.555313460266803,0.029805525063625,0.0450578988054713,0.0298055250636244,0.0450578988054716,-0.826145722334095,0.547163693194516
0.67,-0.828994711871831,0.543212736599467,0.0295676178998082,0.0461503475930676,0.0295676178998077,0.0461503475930679,-0.834070297779,0.534908612627363
0.68,-0.836810875721901,0.531001513273328,0.0293036129097523,0.0472440692011048,0.0293036129097518,0.047244069201105,-0.841807847541277,0.522545431572376
0.69,-0.844442642562621,0.51868265668447,0.0290134533959924,0.0483385101113012,0.0290134533959919,0.0483385101113014,-0.849356997213321,0.510077118240088
0.7,-0.851888631779649,0.506259050433899,0.0286970942184943,0.0494331162529202,0.0286970942184938,0.0494331162529205,-0.856716420335344,0.497506657943544
0.71,-0.859147506363902,0.493733594525419,0.0283545017611578,0.0505273332621125,0.0283545017611573,0.0505273332621127,-0.863884838796963,0.484837051994775
0.72,-0.866217973448362,0.481109204561085,0.0279856538927645,0.0516206067376116,0.027985653892764,0.0516206067376118,-0.87086102318245,0.472071316623715
0.73,-0.873098784782938,0.468388810934864,0.0275905399224959,0.0527123824928161,0.0275905399224953,0.0527123824928163,-0.877643793064524,0.459212481917504
0.74,-0.879788737153193,0.455575358025113,0.0271691605501437,0.0538021068042735,0.0271691605501432,0.0538021068042737,-0.88423201725088,0.446263590778456
0.75,-0.886286672747988,0.442671803386472,0.0267215278111386,0.0548892266565705,0.0267215278111381,0.0548892266565706,-0.890624613987165,0.433227697899263
0.76,-0.892591479480426,0.42968111694173,0.0262476650165175,0.0559731899836215,0.026247665016517,0.0559731899836216,-0.896820551119649,0.420107868754285
0.77,-0.898702091265951,0.41660628017423,0.0257476066879561,0.0570534459063414,0.0257476066879556,0.0570534459063416,-0.902818846220451,0.406907178605952
0.78,-0.904617488260946,0.403450285321302,0.0252213984879879,0.0581294449666794,0.0252213984879875,0.0581294449666795,-0.908618566677848,0.39362871152552
0.79,-0.910336697064792,0.390216134569262,0.0246690971455363,0.0592006393579878,0.0246690971455358,0.0592006393579878,-0.914218829753945,0.380275559427532
0.8,-0.915858790887997,0.376906839250435,0.0240907703768831,0.0602664831516944,0.0240907703768827,0.0602664831516944,-0.919618802611691,0.366850821117491
0.81,-0.921182889688714,0.36352541904267,0.0234864968022012,0.0613264325202448,0.0234864968022007,0.0613264325202449,-0.924817702313072,0.353357601352345
0.82,-0.926308160279671,0.350074901171784,0.0228563658577758,0.0623799459562792,0.0228563658577754,0.0623799459562793,-0.929814795790101,0.339799009913468
0.83,-0.931233816407376,0.336558319617364,0.0222004777040435,0.0634264844880071,0.0222004777040431,0.0634264844880071,-0.934609399790072,0.326178160691906
0.84,-0.935959118805215,0.322978714322329,0.0215189431295749,0.0644655118907431,0.0215189431295745,0.0644655118907431,-0.939200880796438,0.312498170785703
0.85,-0.940483375221923,0.309339130406629,0.0208118834511302,0.0654964948945673,0.0208118834511298,0.0654964948945673,-0.943588654926522,0.298762159609196
0.86,-0.944805940426758,0.295642617385465,0.0200794304099165,0.0665189033880737,0.0200794304099162,0.0665189033880737,-0.947772187807199,0.284973248014185
0.87,-0.948926216192577,0.281892228392378,0.0193217260641751,0.0675322106181732,0.0193217260641748,0.0675322106181732,-0.95175099442958,0.271134557422937
0.88,-0.952843651257919,0.268091019407528,0.0185389226782283,0.0685358933859165,0.018538922678228,0.0685358933859165,-0.955524638983669,0.257249208972998
0.89,-0.956557741269095,0.25424204849152,0.0177311826081157,0.0695294322383066,0.0177311826081154,0.0695294322383065,-0.959092734673885,0.243320322673835
0.9,-0.960068028703202,0.240348375025044,0.0168986781839478,0.0705123116560711,0.0168986781839475,0.0705123116560711,-0.962454943516291,0.229351016575306
0.91,-0.963374102772908,0.226413058954652,0.0160415915891083,0.0714840202373679,0.016041591589108,0.0714840202373678,-0.965610976118312,0.215344405948018
0.92,-0.966475599313805,0.212439160044931,0.0151601147364321,0.0724440508773988,0.0151601147364318,0.0724440508773988,-0.968560591441698,0.201303602475606
0.93,-0.969372200655043,0.198429737137354,0.0142544491414889,0.0733919009439106,0.0142544491414886,0.0733919009439105,-0.971303596549425,0.187231713458995
0.94,-0.972063635473939,0.184387847416041,0.0133248057930998,0.0743270724485628,0.0133248057930996,0.0743270724485627,-0.973839846337201,0.173131841032709
0.95,-0.974549678635196,0.170316545680688,0.0123714050212156,0.0752490722141478,0.0123714050212154,0.0752490722141477,-0.976169243250231,0.159007081393287
0.96,-0.976830151015337,0.156218883626877,0.0113944763622819,0.0761574120376476,0.0113944763622817,0.0761574120376474,-0.978291736985833,0.144860524039874
0.97,-0.978904919312903,0.142097909133989,0.0103942584222191,0.0770516088491191,0.0103942584222189,0.077051608849119,-0.980207324182497,0.13069525102706
0.98,-0.980773895844988,0.127956665560915,0.00937099873714063,0.0779311848663994,0.00937099873714052,0.0779311848663994,-0.981916048095958,0.116514336230016
0.99,-0.982437038330585,0.113798191049772,0.00832495363193517,0.0787956677456258,0.00832495363193504,0.0787956677456256,-0.983417998262814,0.102320844622017
1,-0.983894349661257,0.0996255178377787,0.00725638807683395,0.0796445907275704,0.00725638807683385,0.0796445907275702,-0.984713310152219,0.0881178315643743
1.01,-0.985145877659586,0.0854416715774831,0.00616557554208646,0.0804774927797909,0.00616557554208637,0.0804774927797908,-0.985802164806164,0.0739083421088723
1.02,-0.986191714825863,0.0712496706654892,0.00505279785086392,0.0812939187346009,0.00505279785086387,0.0812939187346007,-0.986684788468837,0.0596954103127258
1.03,-0.987031998073426,0.0570525255798299,0.00391834503050987,0.0820934194228671,0.00391834503050979,0.0820934194228669,-0.987361452205528,0.0454820585661242
1.04,-0.987666908453088,0.0428532382261286,0.00276251516225482,0.082875551803646,0.00276251516225477,0.0828755518036458,-0.987832471511573,0.0312712969323904
1.05,-0.988096670867043,0.0286548012926725,0.00158561422951127,0.08363987908967,0.00158561422951125,0.0836398790896698,-0.988098205911761,0.0170661225007924
1.06,-0.988321553772637,0.0144601976145193,0.000387955964862576,0.0843859708687015,0.000387955964862603,0.0843859708687014,-0.98815905855067,0.00286951875202901
1.07,-0.988341868876387,0.00027239954674374,-0.00083013830414164,0.0851134032207719,-0.000830138304141607,0.0851134032207717,-0.988015475774354,-0.0113155450635893
1.08,-0.988157970818622,-0.0139056316530768,-0.00206833981027362,0.0858217588313274,-0.00206833981027358,0.0858217588313273,-0.987667946703802,-0.0254861145352515
1.09,-0.987770256849077,-0.0280709464330462,-0.00332631250288988,0.0865106271003071,-0.00332631250288982,0.086510627100307,-0.987117002800583,-0.0396392506880503
1.1,-0.987179166493821,-0.0422206075457216,-0.00460371320506213,0.0871796042471763,-0.00460371320506208,0.0871796042471762,-0.98636321742509,-0.0537720305666715
1.11,-0.986385181213834,-0.0563516906374012,-0.00590019177147186,0.0878282934119477,-0.00590019177147179,0.0878282934119475,-0.985407205387755,-0.06788154780639
1.12,-0.985388824055565,-0.0704612848278624,-0.00721539124696624,0.0884563047522189,-0.00721539124696611,0.0884563047522188,-0.984249622493651,-0.081964913191383
1.13,-0.984190659293813,-0.084546493280496,-0.00854894802567502,0.0890632555362624,-0.00854894802567488,0.0890632555362623,-0.982891165080824,-0.0960192552003843
1.14,-0.982791292067225,-0.0986044337627827,-0.0099004920105908,0.0896487702322005,-0.00990049201059067,0.0896487702322004,-0.981332569552759,-0.110041720539716
1.15,-0.981191368006723,-0.112632239197075,-0.0112696467735163,0.0902124805933064,-0.0112696467735161,0.0902124805933063,-0.979574611905311,-0.124029474663729
1.16,-0.979391572857183,-0.126627058201655,-0.0126560297152853,0.0907540257394692,-0.0126560297152852,0.0907540257394691,-0.977618107248477,-0.137979702282707
1.17,-0.977392632092627,-0.140586055622028,-0.0140592522261667,0.0912730522348652,-0.0140592522261665,0.0912730522348652,-0.975463909323337,-0.151889607858277
1.18,-0.975195310525251,-0.15450641305245,-0.0154789198463613,0.0917692141618797,-0.0154789198463611,0.0917692141618795,-0.973112910014519,-0.165756416086397
1.19,-0.97280041190855,-0.168385329347663,-0.0169146324265063,0.0922421731913233,-0.0169146324265061,0.0922421731913232,-0.970566038858499,-0.179577372367965
1.2,-0.970208778534822,-0.182220021124842,-0.0183659842881032,0.0926915986489925,-0.018365984288103,0.0926915986489924,-0.967824262548079,-0.193349743267154
1.21,-0.967421290827335,-0.196007723255748,-0.0198325643837859,0.0931171675786196,-0.0198325643837857,0.0931171675786196,-0.964888584433343,-0.20707081695752
1.22,-0.964438866927402,-0.209745689349098,-0.021313956457352,0.0935185648012659,-0.0213139564573518,0.0935185648012659,-0.961760044019403,-0.220737903655985
1.23,-0.961262462276646,-0.223431192223162,-0.0228097392034784,0.0938954829712062,-0.0228097392034782,0.0938954829712062,-0.958439716461243,-0.234348336044782
1.24,-0.957893069194689,-0.23706152436861,-0.0243194864270486,0.0942476226283608,-0.0243194864270484,0.0942476226283608,-0.954928712055945,-0.247899469681454
1.25,-0.954331716452538,-0.250633998401629,-0.0258427672020179,0.0945746922473266,-0.0258427672020177,0.0945746922473266,-0.951228175732582,-0.261388683397008
1.26,-0.950579468841886,-0.264145947507343,-0.0273791460297488,0.094876408283064,-0.0273791460297486,0.094876408283064,-0.94733928654007,-0.27481337968234
1.27,-0.946637426740593,-0.277594725873571,-0.0289281829967484,0.0951524952132944,-0.0289281829967481,0.0951524952132945,-0.943263257133234,-0.28817098506303
1.28,-0.942506725674554,-0.290977709114964,-0.0304894339317433,0.0954026855776687,-0.0304894339317431,0.0954026855776687,-0.939001333257365,-0.301458950462628
1.29,-0.938188535876211,-0.304292294687563,-0.032062450562031,0.09562672001376,-0.0320624505620307,0.09562672001376,-0.934554793231513,-0.314674751554553
1.3,-0.93368406183991,-0.317535902293827,-0.0336467806690461,0.0958243472899451,-0.0336467806690459,0.0958243472899452,-0.929924947430779,-0.327815889102732
1.31,-0.928994541874323,-0.330705974278199,-0.0352419682430867,0.0959953243352293,-0.0352419682430865,0.0959953243352294,-0.925113137767839,-0.340879889291103
1.32,-0.924121247652168,-0.343799976013243,-0.0368475536371429,0.0961394162660787,-0.0368475536371426,0.0961394162660789,-0.920120737173937,-0.353864304042116
1.33,-0.919065483757405,-0.356815396276442,-0.0384630737197782,0.096256396410319,-0.0384630737197779,0.096256396410319,-0.914949149079584,-0.366766711324372
1.34,-0.913828587230137,-0.369749747617707,-0.0400880620270113,0.0963460463281615,-0.040088062027011,0.0963460463281616,-0.909599806895166,-0.379584715449538
1.35,-0.908411927109398,-0.382600566717667,-0.0417220489131519,0.0964081558304208,-0.0417220489131516,0.0964081558304209,-0.904074173491701,-0.392315947358682
