"Freq [GHz]","im(S(1,1)) []","re(S(1,1)) []","im(S(1,2)) []","re(S(1,2)) []","im(S(2,1)) []","re(S(2,1)) []","im(S(2,2)) []","re(S(2,2)) []"
0.1,-0.0228299078757688,-0.044569414004533,-0.0896224866401471,0.95133644223241,-0.0896224866401474,0.951336442232409,-0.0230713768610211,-0.0433639532842048
0.11,-0.00397728432818519,-0.0225651561476885,-0.0780947136239708,0.967161361463606,-0.0780947136239705,0.967161361463637,-0.00345640318653769,-0.0267039168793858
0.12,-0.00113043868626171,-0.0143988160069805,-0.0804096387423993,0.975803574843521,-0.0804096387424059,0.975803574843559,0.000707552263133449,-0.0172115189932172
0.13,-0.000285308474378451,-0.0104495728051371,-0.0856737861770371,0.980392132927926,-0.0856737861770482,0.980392132927952,0.00183752265363998,-0.0119849766029879
0.14,5.75123570906678E-005,-0.00816107045711989,-0.09179952340335,0.982982919008479,-0.0917995234033621,0.9829829190085,0.00215526797126823,-0.00878843233966603
0.15,0.000223953008967118,-0.00668192669561255,-0.0982346210489512,0.984475930481198,-0.098234621048963,0.984475930481213,0.0022058903016886,-0.00666493224120462
0.16,0.000315204241254979,-0.00565451506844605,-0.104794137990543,0.985301806631656,-0.104794137990554,0.985301806631668,0.0021592931155735,-0.0051665466091642
0.17,0.000370139034102976,-0.00490358949409302,-0.111405467330034,0.985688007244313,-0.111405467330044,0.985688007244323,0.00207722749542603,-0.00406067988592549
0.18,0.000405967903320625,-0.00433352415593407,-0.118036771776305,0.985764795222583,-0.118036771776314,0.98576479522259,0.00198436992977721,-0.00321588269428936
0.19,0.000431121706804427,-0.00388784808106671,-0.12467294233975,0.985611728779614,-0.124672942339758,0.98561172877962,0.00189106805834041,-0.0025527241191826
0.2,0.000450053526555159,-0.00353113433731218,-0.131306385166531,0.985279974866389,-0.131306385166538,0.985279974866393,0.00180165190935093,-0.00202057281941528
0.21,0.000465255184837547,-0.00324007143850687,-0.137933120751248,0.984803857969641,-0.137933120751255,0.984803857969644,0.00171778250034459,-0.00158572628930743
0.22,0.000478185234697268,-0.0029987159251514,-0.144550999498594,0.984207223613262,-0.1445509994986,0.984207223613265,0.00163990259545833,-0.00122493499289725
0.23,0.000489728137943468,-0.00279581005285981,-0.15115883398102,0.983507132699807,-0.151158833981025,0.983507132699809,0.00156789951407583,-0.000921673737551875
0.24,0.000500435241403181,-0.00262318876356895,-0.157755955905783,0.982716102792323,-0.157755955905788,0.982716102792325,0.00150141915138911,-0.000663895250063175
0.25,0.000510657542838415,-0.00247479329225762,-0.164341980961921,0.981843519839272,-0.164341980961925,0.981843519839273,0.00144001772727767,-0.000442623570687362
0.26,0.00052062188169332,-0.00234603839583253,-0.170916680128244,0.980896556588096,-0.170916680128248,0.980896556588097,0.00138323513894917,-0.000251043651632279
0.27,0.000530476199941619,-0.00223339389598669,-0.177479907585169,0.979880787101829,-0.177479907585172,0.979880787101829,0.00133062941904266,-8.38949446480455E-005
0.28,0.000540317234936706,-0.00213410054236233,-0.184031559670044,0.978800608205036,-0.184031559670046,0.978800608205037,0.00128179160316879,6.29428085937028E-005
0.29,0.000550207898976672,-0.00204597256040011,-0.190571551296916,0.977659534896163,-0.190571551296918,0.977659534896163,0.00123635071515106,0.000192738845281603
0.3,0.000560188427996958,-0.00196725760044081,-0.197099802405058,0.976460411484436,-0.19709980240506,0.976460411484436,0.00119397385480767,0.000308117414399985
0.31,0.000570283669859338,-0.00189653557424036,-0.203616230258638,0.975205565151071,-0.20361623025864,0.975205565151071,0.00115436397966298,0.000411207131309605
0.32,0.000580507927285417,-0.00183264437840138,-0.210120745198988,0.973896919409689,-0.210120745198989,0.973896919409689,0.00111725673100225,0.000503750973526035
0.33,0.000590868221157498,-0.001774624550649,-0.216613248447299,0.972536079146101,-0.2166132484473,0.972536079146101,0.00108241700022256,0.000587188457293808
0.34,0.000601366515572614,-0.00172167747998998,-0.223093631125971,0.971124395194149,-0.223093631125972,0.971124395194149,0.00104963558260235,0.000662717833797461
0.35,0.000612001249924653,-0.00167313346654346,-0.229561773999563,0.969663013962234,-0.229561773999564,0.969663013962234,0.00101872607911037,0.000731343724344337
0.36,0.000622768402139568,-0.00162842703766943,-0.23601754763351,0.968152915993297,-0.236017547633511,0.968152915993297,0.000989522107839643,0.000793914001663943
0.37,0.000633662230881681,-0.00158707767714934,-0.242460812787261,0.966594946231897,-0.242460812787262,0.966594946231897,0.000961874835193361,0.000851148631414264
0.38,0.000644675795633077,-0.00154867463909145,-0.248891420930415,0.964989838006216,-0.248891420930416,0.964989838006216,0.000935650811461334,0.000903662435007448
0.39,0.000655801321684,-0.00151286487705235,-0.255309214814494,0.963338232196472,-0.255309214814494,0.963338232196472,0.000910730084056986,0.000951983208510027
0.4,0.000667030456011759,-0.00147934337239963,-0.261714029060096,0.961640692680517,-0.261714029060096,0.961640692680517,0.000887004557881797,0.000996566259419197
0.41,0.000678354445916908,-0.00144784532739041,-0.268105690735931,0.959897718873804,-0.268105690735931,0.959897718873804,0.00086437657240632,0.00103780615553014
0.42,0.000689764262719377,-0.0014181398198541,-0.274484019916537,0.958109755982071,-0.274484019916537,0.958109755982071,0.000842757667086361,0.00107604628587589
0.43,0.000701250686257377,-0.00139002461259971,-0.280848830211857,0.956277203438994,-0.280848830211857,0.956277203438994,0.000822067509564238,0.00111158669119741
0.44,0.000712804361387354,-0.00136332188186594,-0.28719992926567,0.954400421892646,-0.28719992926567,0.954400421892647,0.000802232964141872,0.00114469051575976
0.45,0.000724415834505386,-0.00133787468231739,-0.293537119222188,0.952479739023409,-0.293537119222187,0.952479739023409,0.000783187280952517,0.0011755893532825
0.46,0.000736075575869393,-0.00131354400617998,-0.299860197161461,0.950515454414592,-0.29986019716146,0.950515454414593,0.000764869388954158,0.00120448770007731
0.47,0.000747773991908093,-0.00129020632458272,-0.306168955504956,0.948507843650297,-0.306168955504955,0.948507843650297,0.000747223278268701,0.00123156668305964
0.48,0.000759501430562365,-0.00126775152252313,-0.312463182393034,0.946457161779095,-0.312463182393033,0.946457161779096,0.000730197459486566,0.00125698719544892
0.49,0.00077124818188282,-0.00124608115689933,-0.318742662036193,0.944363646254347,-0.318742662036193,0.944363646254347,0.000713744489365607,0.00128089254603543
0.5,0.000783004475511885,-0.0012251069810659,-0.325007175041955,0.942227519440293,-0.325007175041954,0.942227519440293,0.000697820553901959,0.00130341070692572
0.51,0.000794760476245192,-0.00120474969033861,-0.331256498719189,0.940048990756076,-0.331256498719188,0.940048990756077,0.000682385101070144,0.00132465622825363
0.52,0.000806506278548999,-0.00118493785151161,-0.337490407361599,0.937828258516431,-0.337490407361599,0.937828258516432,0.000667400516651818,0.00134473187539399
0.53,0.000818231900677812,-0.00116560698629529,-0.343708672511936,0.935565511517096,-0.343708672511936,0.935565511517097,0.000652831837523632,0.00136373003394668
0.54,0.000829927278863588,-0.00114669878403692,-0.34991106320841,0.933260930404506,-0.34991106320841,0.933260930404506,0.000638646497581911,0.00138173391956803
0.55,0.000841582261921075,-0.00112816042345584,-0.356097346214637,0.930914688862447,-0.356097346214636,0.930914688862447,0.00062481410216589,0.00139881862315976
0.56,0.00085318660651909,-0.00110994398664363,-0.362267286234352,0.928526954642843,-0.362267286234352,0.928526954642843,0.000611306227422216,0.00141505201663232
0.57,0.000864729973297269,-0.00109200595142706,-0.368420646112012,0.926097890463314,-0.368420646112011,0.926097890463314,0.000598096241546509,0.00143049554017384
0.58,0.000876201923955337,-0.00107430675050678,-0.374557187020314,0.923627654790503,-0.374557187020314,0.923627654790503,0.000585159145257653,0.00144520488846829
0.59,0.000887591919402814,-0.00105681038767512,-0.380676668635583,0.921116402525133,-0.380676668635583,0.921116402525134,0.000572471429217921,0.0014592306104563
0.6,0.000898889319027208,-0.00103948410296699,-0.386778849301886,0.918564285602291,-0.386778849301885,0.918564285602292,0.000560010946417086,0.00147261863489342
0.61,0.000910083381117043,-0.00102229807987476,-0.392863486184676,0.915971453518354,-0.392863486184676,0.915971453518354,0.000547756797799632,0.00148541073203293
0.62,0.00092116326445858,-0.00100522518881352,-0.398930335414708,0.9133380537943,-0.398930335414708,0.9133380537943,0.00053568922963742,0.0014976449201659
0.63,0.000932118031112573,-0.000988240761899247,-0.404979152222892,0.910664232383683,-0.404979152222891,0.910664232383684,0.00052378954134196,0.00150935582442707
0.64,0.000942936650367232,-0.000971322394832026,-0.411009691066721,0.907950134032383,-0.411009691066721,0.907950134032384,0.000512040002575141,0.0015205749941721
0.65,0.000953608003855365,-0.000954449772286343,-0.417021705748861,0.905195902596219,-0.417021705748861,0.90519590259622,0.000500423778659186,0.00153133118430866
0.66,0.000964120891817881,-0.000937604513721845,-0.423014949528425,0.902401681321686,-0.423014949528424,0.902401681321687,0.000488924863409162,0.00154165060519016
0.67,0.000974464040489981,-0.000920770036958482,-0.428989175225448,0.899567613094331,-0.428989175225447,0.899567613094332,0.000477528018617099,0.00155155714502908
0.68,0.000984626110582188,-0.00090393143722322,-0.434944135319023,0.896693840658703,-0.434944135319022,0.896693840658704,0.000466218719508576,0.00156107256823716
0.69,0.000994595706824335,-0.000887075379683181,-0.440879582039526,0.893780506813266,-0.440879582039526,0.893780506813267,0.000454983105572165,0.00157021669263358
0.7,0.00100436138853716,-0.000870190003741632,-0.446795267455339,0.890827754583238,-0.446795267455339,0.890827754583239,0.000443807936231151,0.00157900754806686
0.71,0.00101391168119263,-0.000853264837595871,-0.452690943554439,0.887835727373931,-0.452690943554439,0.887835727373932,0.000432680550887334,0.0015874615186596
0.72,0.00102323508892127,-0.00083629072174676,-0.458566362321207,0.884804569106839,-0.458566362321206,0.88480456910684,0.000421588832918908,0.00159559347059723
0.73,0.0010323201079213,-0.000819259740312761,-0.464421275808775,0.881734424340445,-0.464421275808775,0.881734424340446,0.000410521177260556,0.001603416867136
0.74,0.00104115524072192,-0.000802165159142193,-0.470255436207224,0.878625438377462,-0.470255436207224,0.878625438377463,0.000399466461233568,0.00161094387229391
0.75,0.00104972901124969,-0.00078500136983851,-0.476068595907901,0.875477757360038,-0.4760685959079,0.875477757360039,0.00038841401832939,0.00161818544450695
0.76,0.00105802998064433,-0.000767763838918665,-0.481860507564121,0.872291528354233,-0.48186050756412,0.872291528354234,0.000377353614680178,0.00162515142137551
0.77,0.00106604676376744,-0.000750449061415914,-0.48763092414851,0.869066899424966,-0.48763092414851,0.869066899424967,0.000366275427977448,0.00163185059649097
0.78,0.00107376804634458,-0.000733054518318075,-0.493379599007201,0.865804019702439,-0.493379599007201,0.86580401970244,0.000355170028623278,0.00163829078921477
0.79,0.00108118260267894,-0.000715578637302119,-0.499106285911095,0.862503039440975,-0.499106285911095,0.862503039440976,0.000344028362919768,0.00164447890818014
0.8,0.0010882793138718,-0.000698020756287172,-0.504810739104401,0.859164110071062,-0.504810739104401,0.859164110071063,0.000332841738120368,0.00165042100919825
0.81,0.00109504718648287,-0.000680381089382243,-0.510492713350616,0.855787384245324,-0.510492713350616,0.855787384245324,0.00032160180918345,0.00165612234817287
0.82,0.00110147537156085,-0.000662660694852812,-0.516151963976136,0.852373015879054,-0.516151963976136,0.852373015879055,0.000310300567082331,0.00166158742956009
0.83,0.00110755318397322,-0.00064486144477329,-0.521788246911639,0.848921160185874,-0.521788246911639,0.848921160185875,0.000298930328538943,0.00166682005085026
0.84,0.00111327012196136,-0.000626985996070213,-0.527401318731406,0.845431973709013,-0.527401318731406,0.845431973709014,0.000287483727059284,0.00167182334349741
0.85,0.00111861588684639,-0.000609037762695572,-0.532990936690699,0.841905614348662,-0.532990936690699,0.841905614348663,0.000275953705158801,0.00167659981067544
0.86,0.00112358040280916,-0.000591020888700278,-0.538556858761342,0.838342241385796,-0.538556858761342,0.838342241385797,0.000264333507674568,0.00168115136220004
0.87,0.00112815383666689,-0.00057294022200587,-0.544098843665613,0.834742015502812,-0.544098843665612,0.834742015502813,0.000252616676068902,0.00168547934691976
0.88,0.00113232661756835,-0.000554801288697799,-0.549616650908557,0.831105098801309,-0.549616650908557,0.83110509880131,0.000240797043635898,0.00168958458284764
0.89,0.00113608945652881,-0.000536610267686968,-0.555110040808837,0.82743165481729,-0.555110040808837,0.82743165481729,0.000228868731528616,0.00169346738527711
0.9,0.00113943336572627,-0.000518373965607185,-0.560578774528197,0.823721848534025,-0.560578774528197,0.823721848534026,0.000216826145529938,0.00169712759310077
0.91,0.00114234967748038,-0.000500099791835819,-0.566022614099651,0.819975846392827,-0.566022614099651,0.819975846392828,0.000204663973495126,0.00170056459352805
0.92,0.00114483006283659,-0.000481795733542789,-0.571441322454459,0.816193816301914,-0.571441322454459,0.816193816301914,0.000192377183398428,0.00170377734537837
0.93,0.00114686654967913,-0.000463470330689583,-0.576834663447983,0.81237592764356,-0.576834663447982,0.812375927643561,0.00017996102191989,0.00170676440110798
0.94,0.00114845154029767,-0.000445132650915207,-0.582202401884484,0.808522351279689,-0.582202401884484,0.80852235127969,0.00016741101351221,0.00170952392771293
0.95,0.0011495778283349,-0.000426792264260202,-0.58754430354094,0.80463325955606,-0.58754430354094,0.80463325955606,0.000154722959890511,0.00171205372663591
0.96,0.0011502386150443,-0.000408459217692814,-0.59286013518993,0.800708826305166,-0.59286013518993,0.800708826305167,0.000141892939890851,0.00171435125279184
0.97,0.00115042752479042,-0.00039014400941357,-0.598149664621655,0.796749226847988,-0.598149664621655,0.796749226847988,0.000128917309645933,0.00171641363281487
0.98,0.00115013861972682,-0.000371857562925548,-0.603412660665146,0.792754637994677,-0.603412660665145,0.792754637994678,0.000115792703028896,0.00171823768261905
0.99,0.00114936641359077,-0.000353611200868016,-0.608648893208706,0.788725238044292,-0.608648893208706,0.788725238044292,0.000102516032318281,0.00171981992435482
1,0.00114810588455743,-0.000335416618620389,-0.613858133219643,0.784661206783655,-0.613858133219643,0.784661206783656,8.90844890393646E-005,0.0017211566028346
1.01,0.00114635248710056,-0.000317285857692158,-0.619040152763316,0.780562725485422,-0.619040152763316,0.780562725485422,7.54955449391644E-005,0.00172224370149255
1.02,0.00114410216281143,-0.000299231278922173,-0.624194725021563,0.776429976905416,-0.624194725021563,0.776429976905416,6.17469530540127E-005,0.00172307695793605
1.03,0.00114135135013237,-0.000281265535517757,-0.62932162431052,0.772263145279313,-0.629321624310519,0.772263145279314,4.78367488307375E-005,0.00172365187913953
1.04,0.00113809699296667,-0.000263401545970348,-0.634420626097887,0.768062416318714,-0.634420626097887,0.768062416318715,3.37632512639163E-005,0.00172396375632465
1.05,0.00113433654813156,-0.00024565246689001,-0.639491507019668,0.763827977206668,-0.639491507019668,0.763827977206669,1.95250640136086E-005,0.00172400767956553
1.06,0.00113006799162691,-0.000228031665805848,-0.6445340448964,0.759560016592691,-0.6445340448964,0.759560016592692,5.12107646953524E-006,0.00172377855215149
1.07,0.00112528982369761,-0.000210552693983662,-0.649548018748929,0.755258724587318,-0.649548018748928,0.755258724587319,-9.44953527069569E-006,0.00172327110473543
1.08,0.00112000107267353,-0.000193229259315429,-0.654533208813727,0.750924292756234,-0.654533208813726,0.750924292756234,-2.41873075399156E-005,0.00172247990929094
1.09,0.00111420129757678,-0.000176075199338106,-0.659489396557799,0.746556914114009,-0.659489396557798,0.74655691411401,-3.90924883854431E-005,0.00172139939289693
1.1,0.00110789058949169,-0.00015910445444127,-0.664416364693189,0.742156783117484,-0.664416364693189,0.742156783117485,-5.41650370260279E-005,0.0017200238513647
1.11,0.00110106957169908,-0.000142331041324627,-0.669313897191112,0.737724095658815,-0.669313897191111,0.737724095658815,-6.94046235075312E-005,0.00171834746271868
1.12,0.00109373939858171,-0.000125769026767217,-0.674181779295725,0.733259049058219,-0.674181779295724,0.733259049058219,-8.48106285811226E-005,0.00171636430053845
1.13,0.00108590175331394,-0.000109432501770492,-0.679019797537567,0.72876184205644,-0.679019797537566,0.72876184205644,-0.000100382143826267,0.00171406834716674
1.14,0.0010775588443538,-9.33355561370652E-005,-0.683827739746674,0.724232674806952,-0.683827739746674,0.724232674806953,-0.000116117972038917,0.00171145350678509
1.15,0.00106871340076119,-7.74922535461106E-005,-0.68860539506539,0.719671748867924,-0.68860539506539,0.719671748867924,-0.000132016627903445,0.00170851361835624
1.16,0.00105936866637112,-6.19166071850913E-005,-0.693352553960883,0.715079267193959,-0.693352553960883,0.715079267193959,-0.000148076338965187,0.00170524246842985
1.17,0.00104952839285553,-4.6622555995591E-005,-0.698069008237397,0.710455434127634,-0.698069008237396,0.710455434127635,-0.000164295046918425,0.001701633803806
1.18,0.00103919683171229,-3.16239415888936E-005,-0.702754551048221,0.705800455390841,-0.702754551048221,0.705800455390842,-0.000180670409222902,0.00169768134404904
1.19,0.00102837872522376,-1.6934485884119E-005,-0.707408976907429,0.70111453807595,-0.707408976907428,0.70111453807595,-0.00019719980105997,0.0016933787938423
1.2,0.0010170792964317,-2.56776951893143E-006,-0.712032081701357,0.696397890636811,-0.712032081701357,0.696397890636811,-0.000213880317637591,0.00168871985517305
1.21,0.00100530423817876,1.14627889207538E-005,-0.716623662699868,0.691650722879595,-0.716623662699867,0.691650722879596,-0.000230708776851477,0.00168369823933524
1.22,0.000993059701270001,2.51439528090528E-005,-0.721183518567383,0.686873245953496,-0.721183518567383,0.686873245953497,-0.000247681722307724,0.00167830767873696
1.23,0.000980352281810962,3.8462686487386E-005,-0.725711449373711,0.682065672341289,-0.725711449373711,0.682065672341289,-0.000264795426710359,0.00167254193849806
1.24,0.000967189007780998,5.14061733357827E-005,-0.730207256604668,0.677228215849767,-0.730207256604668,0.677228215849768,-0.000282045895615322,0.00166639482782293
1.25,0.000953577324903032,6.39618328774518E-005,-0.734670743172502,0.672361091600059,-0.734670743172502,0.672361091600059,-0.000299428871550481,0.00165986021113273
1.26,0.000939525081872227,7.61173368902499E-005,-0.739101713426138,0.667464516017829,-0.739101713426138,0.667464516017829,-0.000316939838499404,0.00165293201894101
1.27,0.000925040515007649,8.786062450317E-005,-0.743499973161228,0.662538706823376,-0.743499973161227,0.662538706823376,-0.000334574026744825,0.00164560425845623
1.28,0.000910132232391608,9.91799162603341E-005,-0.747865329630038,0.65758388302163,-0.747865329630038,0.65758388302163,-0.000352326418065841,0.00163787102389495
1.29,0.000894809197562173,0.000110063727139573,-0.752197591551163,0.652600264892053,-0.752197591551162,0.652600264892054,-0.000370191751281206,0.0016297265064891
1.3,0.000879080712824099,0.00012050087851715,-0.756496569119072,0.647588073978456,-0.756496569119072,0.647588073978456,-0.000388164528129443,0.00162116500417139
1.31,0.000862956402243539,0.000130480509074445,-0.760762074013509,0.64254753307872,-0.760762074013509,0.64254753307872,-0.000406239019474696,0.00161218093092304
